# MHz S MA R 50
!FREQUENCY MAG(S11)ANG(S11) MAG(S21)ANG(S21) MAG(S12)ANG(S12) MAG(S22)ANG(S22)
1000 0.988 -20.0 5.327 160.1 0.015 75.7 0.574 -16.3
2000 0.956 -39.5 5.133 141.0 0.028 63.3 0.560 -32.1
3000 0.908 -58.1 4.851 123.0 0.039 50.1 0.539 -47.3
4000 0.862 -75.5 4.534 105.9 0.048 39.0 0.522 -62.0
5000 0.811 -91.6 4.213 89.7 0.053 29.3 0.502 -75.6
6000 0.763 -107.1 3.886 74.4 0.056 21.0 0.488 -89.6
7000 0.727 -121.1 3.582 60.0 0.057 13.2 0.487 -103.0
8000 0.701 -133.3 3.300 46.4 0.056 7.9 0.498 -114.9
9000 0.682 -144.1 3.078 33.8 0.055 3.5 0.515 -125.0
10000 0.659 -154.2 2.899 21.4 0.055 -0.0 0.531 -134.4
11000 0.636 -164.4 2.748 9.3 0.054 -2.6 0.544 -144.0
12000 0.618 -175.4 2.593 -3.3 0.054 -5.2 0.561 -155.1
13000 0.608 175.5 2.466 -14.8 0.054 -5.7 0.590 -164.0
14000 0.596 166.6 2.366 -26.6 0.055 -7.8 0.619 -172.4
15000 0.585 158.3 2.279 -38.3 0.056 -9.7 0.654 -179.7
16000 0.564 148.8 2.244 -50.7 0.058 -12.8 0.677 172.6
17000 0.543 138.2 2.217 -63.6 0.061 -17.6 0.701 163.4
18000 0.525 127.3 2.185 -77.1 0.063 -24.7 0.727 154.1
19000 0.506 116.2 2.143 -91.4 0.063 -33.1 0.748 143.6
20000 0.470 106.5 2.089 -105.4 0.061 -43.7 0.763 137.2
